# GHz S RI R 50

2.291000000000000e+00 -8.1515215620000003e-01  4.1279358329999999e-01  7.6171466000000002e-03 -7.6221504000000004e-03  7.6171466000000002e-03 -7.6221504000000004e-03 -8.5306829319999999e-01  3.2564210090000001e-01
2.294000000000000e+00 -8.0796407260000003e-01  4.3253226470000000e-01  6.5987531999999998e-03 -7.2018997999999997e-03  6.5987531999999998e-03 -7.2018997999999997e-03 -8.4641407400000002e-01  3.4563790160000002e-01
2.297000000000000e+00 -7.9557993140000005e-01  4.5158951030000000e-01  5.6626389000000001e-03 -6.3022616000000002e-03  5.6626389000000001e-03 -6.3022616000000002e-03 -8.3526577489999998e-01  3.6506038619999998e-01
2.300000000000000e+00 -7.7994499589999999e-01  4.6840272360000001e-01  5.0506926000000001e-03 -5.2233777999999998e-03  5.0506926000000001e-03 -5.2233777999999998e-03 -8.2092895089999995e-01  3.8263038100000002e-01
2.303000000000000e+00 -7.6149907090000002e-01  4.8219920940000000e-01  4.7285139000000000e-03 -4.1411868999999997e-03  4.7285139000000000e-03 -4.1411868999999997e-03 -8.0338713770000003e-01  3.9682014500000001e-01
2.306000000000000e+00 -7.4279440610000003e-01  4.8892196100000002e-01  4.6327171000000002e-03 -3.1750313000000001e-03  4.6327171000000002e-03 -3.1750313000000001e-03 -7.8692940899999997e-01  4.0273094129999998e-01
2.309000000000000e+00 -7.3330838639999996e-01  4.8931509779999999e-01  4.8040801000000001e-03 -2.5807779000000001e-03  4.8040801000000001e-03 -2.5807779000000001e-03 -7.8185556940000001e-01  4.0453526839999998e-01
2.312000000000000e+00 -7.3787480309999998e-01  5.0264357130000004e-01  4.5146648999999997e-03 -2.5051980000000001e-03  4.5146648999999997e-03 -2.5051980000000001e-03 -7.8653009529999995e-01  4.2201862470000001e-01
2.315000000000000e+00 -7.3120954680000005e-01  5.3002731390000002e-01  3.9947102000000003e-03 -2.1090843999999999e-03  3.9947102000000003e-03 -2.1090843999999999e-03 -7.7910290380000002e-01  4.5065621189999999e-01
2.318000000000000e+00 -7.1515872039999995e-01  5.5699498039999995e-01  3.5804017999999998e-03 -2.1023083999999999e-03  3.5804017999999998e-03 -2.1023083999999999e-03 -7.6404012180000003e-01  4.7859467280000001e-01
2.321000000000000e+00 -6.9274431830000005e-01  5.8244287350000001e-01  2.5731869999999998e-03 -1.8674029999999999e-03  2.5731869999999998e-03 -1.8674029999999999e-03 -7.4187510440000004e-01  5.0577407029999999e-01
2.324000000000000e+00 -6.6033397549999995e-01  6.0394183980000005e-01  1.6163789000000000e-03 -1.3457244000000001e-03  1.6163789000000000e-03 -1.3457244000000001e-03 -7.0824972570000000e-01  5.2698627870000003e-01
2.327000000000000e+00 -6.2937053460000003e-01  6.0533139339999997e-01  1.1407572999999999e-03 -6.0824320000000002e-04  1.1407572999999999e-03 -6.0824320000000002e-04 -6.8362567929999996e-01  5.2490704470000005e-01
2.330000000000000e+00 -6.2060755909999998e-01  6.1707716749999997e-01  7.3208059999999996e-04 -7.2928990000000003e-04  7.3208059999999996e-04 -7.2928990000000003e-04 -6.7821260329999999e-01  5.4267017070000001e-01
2.333000000000000e+00 -6.0343011339999997e-01  6.4164925790000005e-01 -2.2850200000000000e-05 -1.0153298000000000e-03 -2.2850200000000000e-05 -1.0153298000000000e-03 -6.6052962309999996e-01  5.7145712209999999e-01
2.336000000000000e+00 -5.7737433090000001e-01  6.6872447980000005e-01 -9.1805779999999996e-04 -1.6362744000000000e-03 -9.1805779999999996e-04 -1.6362744000000000e-03 -6.3466175349999998e-01  6.0178112530000005e-01
2.339000000000000e+00 -5.4434356500000003e-01  6.9703636570000005e-01 -2.0809212000000000e-03 -2.6079677999999999e-03 -2.0809212000000000e-03 -2.6079677999999999e-03 -6.0035310220000004e-01  6.3364974829999998e-01
2.342000000000000e+00 -5.0262724579999996e-01  7.2247374669999997e-01 -3.6950576000000001e-03 -3.9727063000000000e-03 -3.6950576000000001e-03 -3.9727063000000000e-03 -5.5719128829999998e-01  6.6096765769999999e-01
2.345000000000000e+00 -4.5707964320000000e-01  7.4639904260000001e-01 -5.6567915999999998e-03 -5.8587976000000000e-03 -5.6567915999999998e-03 -5.8587976000000000e-03 -5.0875203049999995e-01  6.8875219030000001e-01
2.348000000000000e+00 -4.0285407159999997e-01  7.7008320080000003e-01 -8.4195719000000006e-03 -8.4749458999999992e-03 -8.4195719000000006e-03 -8.4749458999999992e-03 -4.4851868870000000e-01  7.1537425919999997e-01
2.351000000000000e+00 -3.3796270140000001e-01  7.8772362419999997e-01 -1.2137655400000001e-02 -1.1252562900000001e-02 -1.2137655400000001e-02 -1.1252562900000001e-02 -3.7842875469999998e-01  7.3144493300000002e-01
2.354000000000000e+00 -2.6592008119999999e-01  8.0326607790000004e-01 -1.6340415099999998e-02 -1.4991004299999999e-02 -1.6340415099999998e-02 -1.4991004299999999e-02 -2.9534419210000001e-01  7.4714546579999996e-01
2.357000000000000e+00 -1.7778161160000000e-01  8.1290660230000000e-01 -2.1620769599999999e-02 -1.9405213399999999e-02 -2.1620769599999999e-02 -1.9405213399999999e-02 -1.8798813030000000e-01  7.5218640869999998e-01
2.360000000000000e+00 -6.8483812699999994e-02  8.0497793979999999e-01 -2.6205619699999998e-02 -2.4269646999999998e-02 -2.6205619699999998e-02 -2.4269646999999998e-02 -5.3401036300000003e-02  7.1993646320000004e-01
2.363000000000000e+00  5.9202398800000000e-02  7.6469353439999999e-01 -2.5304533200000000e-02 -3.4857866199999997e-02 -2.5304533200000000e-02 -3.4857866199999997e-02  9.4125554400000006e-02  6.1935715199999997e-01
2.366000000000000e+00  1.8988364639999999e-01  6.7173987300000004e-01 -2.2999956500000002e-02 -7.1583245599999998e-02 -2.2999956500000002e-02 -7.1583245599999998e-02  1.9215863740000000e-01  4.2113860110000001e-01
2.369000000000000e+00  2.9378176540000001e-01  5.2078846239999999e-01 -5.7923429100000000e-02 -1.4818453300000001e-01 -5.7923429100000000e-02 -1.4818453300000001e-01  1.3439049170000000e-01  1.8666712069999999e-01
2.372000000000000e+00  3.2811421880000002e-01  3.2481815030000000e-01 -1.9366605880000001e-01 -2.1744943440000000e-01 -1.9366605880000001e-01 -2.1744943440000000e-01 -5.5340318300000003e-02  8.6491426499999996e-02
2.375000000000000e+00  2.6109835549999999e-01  1.3063662460000000e-01 -4.0973681130000000e-01 -1.7058071210000000e-01 -4.0973681130000000e-01 -1.7058071210000000e-01 -1.7453609719999999e-01  1.5326541960000001e-01
2.378000000000000e+00  1.3154104210000001e-01  1.5085098599999999e-02 -5.6309104870000004e-01  3.5123957099999999e-02 -5.6309104870000004e-01  3.5123957099999999e-02 -1.6202794560000000e-01  2.0128511230000001e-01
2.381000000000000e+00 -3.6470083999999999e-03 -2.9005352400000000e-02 -5.7593627110000001e-01  2.8544685730000002e-01 -5.7593627110000001e-01  2.8544685730000002e-01 -1.5130943270000000e-01  1.8639162660000000e-01
2.384000000000000e+00 -1.2042960980000000e-01 -8.0946740999999992e-03 -4.7879596359999999e-01  4.9595468399999998e-01 -4.7879596359999999e-01  4.9595468399999998e-01 -1.6826263240000000e-01  1.7113806600000001e-01
2.387000000000000e+00 -1.8777977490000000e-01  5.1462884299999997e-02 -3.2753563800000002e-01  6.3392967430000002e-01 -3.2753563800000002e-01  6.3392967430000002e-01 -1.8419050379999999e-01  1.7852103750000001e-01
2.390000000000000e+00 -2.0629323010000000e-01  1.1250992460000001e-01 -1.6656620920000001e-01  7.0884383549999996e-01 -1.6656620920000001e-01  7.0884383549999996e-01 -1.8059738210000001e-01  1.9492760540000001e-01
2.393000000000000e+00 -1.8940045000000000e-01  1.6260527769999999e-01 -1.0043911500000001e-02  7.3979974439999996e-01 -1.0043911500000001e-02  7.3979974439999996e-01 -1.5947474910000001e-01  2.0614272519999999e-01
2.396000000000000e+00 -1.4294742539999999e-01  1.8771363990000001e-01  1.3662449900000001e-01  7.3741067520000003e-01  1.3662449900000001e-01  7.3741067520000003e-01 -1.2221307850000000e-01  2.0665140879999999e-01
2.399000000000000e+00 -7.9338840499999994e-02  1.7314474520000001e-01  2.6787932660000002e-01  7.0363124880000005e-01  2.6787932660000002e-01  7.0363124880000005e-01 -7.4391688100000006e-02  1.8218193060000001e-01
2.402000000000000e+00 -4.8867081200000002e-02  1.0502643730000000e-01  3.6941218380000002e-01  6.6947490759999995e-01  3.6941218380000002e-01  6.6947490759999995e-01 -3.5985059299999997e-02  1.2314584870000000e-01
2.405000000000000e+00 -5.5483947200000001e-02  5.8212040999999999e-02  4.9549717840000002e-01  6.2259273810000004e-01  4.9549717840000002e-01  6.2259273810000004e-01 -3.7565280399999998e-02  5.9880437299999999e-02
2.408000000000000e+00 -6.3577097700000001e-02  1.3916178499999999e-02  6.0627111249999999e-01  5.3593441340000003e-01  6.0627111249999999e-01  5.3593441340000003e-01 -3.4091284899999998e-02 -2.6870744100000000e-02
2.411000000000000e+00 -8.1919797300000000e-02 -3.1526439300000000e-02  6.8456750249999998e-01  4.2949367890000001e-01  6.8456750249999998e-01  4.2949367890000001e-01 -6.5693915199999994e-02 -4.7019471600000001e-02
2.414000000000000e+00 -1.1427281050000000e-01 -7.0649502599999997e-02  7.3825808589999997e-01  3.2309878949999998e-01  7.3825808589999997e-01  3.2309878949999998e-01 -9.8603927100000002e-02 -8.5083816000000007e-02
2.417000000000000e+00 -1.5113742250000001e-01 -9.6048949800000005e-02  7.7536795940000003e-01  2.1174239080000001e-01  7.7536795940000003e-01  2.1174239080000001e-01 -1.3605432370000001e-01 -1.1693049649999999e-01
2.420000000000000e+00 -1.8363895350000001e-01 -1.1820724150000000e-01  7.8382317899999998e-01  9.7467511100000001e-02  7.8382317899999998e-01  9.7467511100000001e-02 -1.6935662900000001e-01 -1.4174114580000000e-01
2.423000000000000e+00 -2.2692001410000001e-01 -1.4332642340000001e-01  7.6728875620000003e-01  8.5454490000000001e-03  7.6728875620000003e-01  8.5454490000000001e-03 -2.0981823410000000e-01 -1.7134137340000000e-01
2.426000000000000e+00 -2.6295405560000001e-01 -1.4389059290000000e-01  7.4128947879999996e-01 -7.7543068000000007e-02  7.4128947879999996e-01 -7.7543068000000007e-02 -2.4671387400000000e-01 -1.7533846230000000e-01
2.429000000000000e+00 -2.9484728360000001e-01 -1.3074145170000001e-01  7.1159891060000002e-01 -1.6338848089999999e-01  7.1159891060000002e-01 -1.6338848089999999e-01 -2.8070676859999999e-01 -1.6475154149999999e-01
2.432000000000000e+00 -3.2300001270000001e-01 -1.1074479960000000e-01  6.7602052250000000e-01 -2.4462802659999999e-01  6.7602052250000000e-01 -2.4462802659999999e-01 -3.1056052350000002e-01 -1.4790943910000001e-01
2.435000000000000e+00 -3.4644987830000001e-01 -8.4751221700000004e-02  6.3469895789999997e-01 -3.2136490569999998e-01  6.3469895789999997e-01 -3.2136490569999998e-01 -3.3562313449999998e-01 -1.2517511980000001e-01
2.438000000000000e+00 -3.6439479629999999e-01 -5.3563208600000002e-02  5.8690614019999998e-01 -3.9391943359999998e-01  5.8690614019999998e-01 -3.9391943359999998e-01 -3.5636605189999998e-01 -9.7210859400000002e-02
2.441000000000000e+00 -3.7727433849999997e-01 -1.9254187700000001e-02  5.3340177950000001e-01 -4.5863736459999999e-01  5.3340177950000001e-01 -4.5863736459999999e-01 -3.7311721900000000e-01 -6.5716035600000000e-02
2.444000000000000e+00 -3.8384844499999998e-01  1.7362419200000000e-02  4.7654073190000001e-01 -5.1527766180000001e-01  4.7654073190000001e-01 -5.1527766180000001e-01 -3.8367397959999999e-01 -3.0930503500000001e-02
2.447000000000000e+00 -3.8250005399999998e-01  5.5268409300000002e-02  4.1757178280000001e-01 -5.6548118849999995e-01  4.1757178280000001e-01 -5.6548118849999995e-01 -3.8655611610000001e-01  5.8843777000000003e-03
2.450000000000000e+00 -3.7472568820000002e-01  9.1483305900000006e-02  3.5682896559999999e-01 -6.0946404990000003e-01  3.5682896559999999e-01 -6.0946404990000003e-01 -3.8324956420000000e-01  4.1917154999999998e-02
2.453000000000000e+00 -3.5834557970000003e-01  1.2724323130000001e-01  2.9465493040000001e-01 -6.4798107000000005e-01  2.9465493040000001e-01 -6.4798107000000005e-01 -3.7134036560000000e-01  7.8361343900000005e-02
2.456000000000000e+00 -3.2917664330000002e-01  1.6207336780000001e-01  2.3002412270000000e-01 -6.8371261809999995e-01  2.3002412270000000e-01 -6.8371261809999995e-01 -3.4680104039999998e-01  1.1484310840000000e-01
2.459000000000000e+00 -2.8420840990000001e-01  1.8830696380000000e-01  1.5326380760000000e-01 -7.2592533569999995e-01  1.5326380760000000e-01 -7.2592533569999995e-01 -3.0590190299999998e-01  1.4613196319999999e-01
2.462000000000000e+00 -2.3441208569999999e-01  2.0439049919999999e-01  6.5610043699999995e-02 -7.6324930420000003e-01  6.5610043699999995e-02 -7.6324930420000003e-01 -2.5844894629999998e-01  1.6803328079999999e-01
2.465000000000000e+00 -1.8133461590000000e-01  2.0838714620000001e-01 -3.5541084700000003e-02 -7.9344539790000002e-01 -3.5541084700000003e-02 -7.9344539790000002e-01 -2.0586118660000000e-01  1.7861933910000000e-01
2.468000000000000e+00 -1.2779646030000000e-01  2.0058727360000000e-01 -1.5036381460000001e-01 -8.1065902519999999e-01 -1.5036381460000001e-01 -8.1065902519999999e-01 -1.4992501429999999e-01  1.7730729430000000e-01
2.471000000000000e+00 -7.9781387600000003e-02  1.6126139500000000e-01 -2.7664356420000003e-01 -7.9032191689999998e-01 -2.7664356420000003e-01 -7.9032191689999998e-01 -9.4879381700000001e-02  1.4421451809999999e-01
2.474000000000000e+00 -4.6570769700000000e-02  1.0598275209999999e-01 -4.0481732760000000e-01 -7.4010699710000005e-01 -4.0481732760000000e-01 -7.4010699710000005e-01 -5.1477467600000000e-02  9.2087275800000007e-02
2.477000000000000e+00 -3.3530975300000002e-02  4.3984084999999999e-02 -5.2631984990000003e-01 -6.5926097969999997e-01 -5.2631984990000003e-01 -6.5926097969999997e-01 -2.5918777099999998e-02  3.0006351399999999e-02
2.480000000000000e+00 -4.1565630200000002e-02 -1.4987037500000000e-02 -6.3193134230000003e-01 -5.4864048720000003e-01 -6.3193134230000003e-01 -5.4864048720000003e-01 -2.0979292699999999e-02 -3.4571788899999997e-02
2.483000000000000e+00 -6.8774297400000003e-02 -6.2332913300000001e-02 -7.1147600740000005e-01 -4.1325457110000002e-01 -7.1147600740000005e-01 -4.1325457110000002e-01 -3.6240267999999999e-02 -9.2630269900000006e-02
2.486000000000000e+00 -1.0721725310000001e-01 -8.9479296200000003e-02 -7.6066863039999999e-01 -2.6146029059999998e-01 -7.6066863039999999e-01 -2.6146029059999998e-01 -6.6642956399999995e-02 -1.3566727560000000e-01
2.489000000000000e+00 -1.4648685680000001e-01 -9.3426317800000006e-02 -7.7716453029999999e-01 -1.0034191260000000e-01 -7.7716453029999999e-01 -1.0034191260000000e-01 -1.0316922900000000e-01 -1.6012534030000000e-01
2.492000000000000e+00 -1.7538939810000001e-01 -7.5402762600000006e-02 -7.5886443299999995e-01  6.5062987200000005e-02 -7.5886443299999995e-01  6.5062987200000005e-02 -1.3763294770000001e-01 -1.6484295160000001e-01
2.495000000000000e+00 -1.8310296830000000e-01 -4.0795476800000001e-02 -7.0253334410000001e-01  2.2801080670000001e-01 -7.0253334410000001e-01  2.2801080670000001e-01 -1.6037667890000001e-01 -1.5241238050000000e-01
2.498000000000000e+00 -1.5979501439999999e-01 -2.7751168000000001e-03 -6.0252925020000003e-01  3.8270193619999998e-01 -6.0252925020000003e-01  3.8270193619999998e-01 -1.6334718970000001e-01 -1.3225106140000001e-01
2.501000000000000e+00 -1.0663446309999999e-01  1.9187793200000001e-02 -4.5321214560000000e-01  5.1314419739999995e-01 -4.5321214560000000e-01  5.1314419739999995e-01 -1.4599546890000001e-01 -1.1652983940000000e-01
2.504000000000000e+00 -3.0556852600000000e-02  1.5689087899999999e-02 -2.5557593360000003e-01  5.9401520600000002e-01 -2.5557593360000003e-01  5.9401520600000002e-01 -1.1530878760000000e-01 -1.1613931320000000e-01
2.507000000000000e+00  2.7509138900000001e-02 -3.9949398900000002e-02 -2.9906346000000000e-02  5.9486350720000003e-01 -2.9906346000000000e-02  5.9486350720000003e-01 -8.7113810700000002e-02 -1.3315505289999999e-01
2.510000000000000e+00  5.2422505199999997e-02 -1.1358045899999999e-01  1.8134655020000001e-01  4.9972143850000000e-01  1.8134655020000001e-01  4.9972143850000000e-01 -7.0107818799999999e-02 -1.5348729240000000e-01
2.513000000000000e+00  5.3697367500000003e-02 -1.6809008200000000e-01  3.2749704489999998e-01  3.1784102289999999e-01  3.2749704489999998e-01  3.1784102289999999e-01 -5.1992222499999997e-02 -1.5998418010000001e-01
2.516000000000000e+00  6.0111275600000000e-02 -2.0016247660000000e-01  3.5836392090000002e-01  9.1053662199999996e-02  3.5836392090000002e-01  9.1053662199999996e-02 -3.9058946999999998e-03 -1.6287452359999999e-01
2.519000000000000e+00  9.1804611400000000e-02 -2.3522301339999999e-01  2.5558374410000001e-01 -9.5109457300000005e-02  2.5558374410000001e-01 -9.5109457300000005e-02  7.5099476600000006e-02 -2.0179792250000000e-01
2.522000000000000e+00  1.4046380370000000e-01 -3.0093173410000001e-01  8.7873791500000006e-02 -1.5055593640000001e-01  8.7873791500000006e-02 -1.5055593640000001e-01  1.4808567100000000e-01 -2.9872007229999997e-01
2.525000000000000e+00  1.7579797019999999e-01 -4.1697123130000002e-01 -2.0079272100000000e-02 -8.9395126199999994e-02 -2.0079272100000000e-02 -8.9395126199999994e-02  1.7601728370000000e-01 -4.4267884410000002e-01
2.528000000000000e+00  1.5091890880000000e-01 -5.6894330260000003e-01 -3.0733294700000000e-02 -2.0937103299999999e-02 -3.0733294700000000e-02 -2.0937103299999999e-02  1.3417161529999999e-01 -5.9771382510000004e-01
2.531000000000000e+00  5.1896305199999999e-02 -6.9468038799999998e-01 -1.2758849799999999e-02  7.3598220000000000e-04 -1.2758849799999999e-02  7.3598220000000000e-04  3.0482952399999999e-02 -7.1398417430000005e-01
2.534000000000000e+00 -7.1815438100000004e-02 -7.6199504740000001e-01 -3.7723384000000002e-03  2.1965052000000001e-03 -3.7723384000000002e-03  2.1965052000000001e-03 -8.9220148900000004e-02 -7.7458268340000003e-01
2.537000000000000e+00 -1.8688314750000001e-01 -7.8747349209999995e-01 -1.1820946000000001e-03  1.4566248000000000e-03 -1.1820946000000001e-03  1.4566248000000000e-03 -1.9817102280000001e-01 -7.9642819129999998e-01
2.540000000000000e+00 -2.8690558070000000e-01 -7.8922820220000001e-01 -4.8260600000000001e-04  7.6516590000000003e-04 -4.8260600000000001e-04  7.6516590000000003e-04 -2.9091463299999998e-01 -7.9715332000000005e-01
2.543000000000000e+00 -3.7267490700000000e-01 -7.7715738430000003e-01 -4.0658399999999998e-04  4.4726489999999999e-04 -4.0658399999999998e-04  4.4726489999999999e-04 -3.7034149789999998e-01 -7.8678425439999999e-01
2.546000000000000e+00 -4.4609724670000001e-01 -7.5688427309999995e-01 -1.5896559999999999e-04  4.4966569999999999e-04 -1.5896559999999999e-04  4.4966569999999999e-04 -4.3884306460000000e-01 -7.6905067019999995e-01
2.549000000000000e+00 -5.0895756630000000e-01 -7.3146383059999998e-01 -1.2330750000000000e-04  2.5317409999999998e-04 -1.2330750000000000e-04  2.5317409999999998e-04 -4.9816517580000003e-01 -7.4663504300000005e-01
2.552000000000000e+00 -5.6293360920000002e-01 -7.0185696330000003e-01  5.2653390000000002e-04  4.8902189999999995e-04  5.2653390000000002e-04  4.8902189999999995e-04 -5.4896052340000001e-01 -7.2010578449999996e-01
2.555000000000000e+00 -6.0868839409999997e-01 -6.7094836150000003e-01  4.8202770000000002e-04  2.8997940000000002e-04  4.8202770000000002e-04  2.8997940000000002e-04 -5.9144193290000002e-01 -6.9283255229999996e-01
2.558000000000000e+00 -6.4617782830000003e-01 -6.4055176719999996e-01  1.4289788999999999e-03  9.7192329999999996e-04  1.4289788999999999e-03  9.7192329999999996e-04 -6.2717426060000003e-01 -6.6638593390000000e-01
2.561000000000000e+00 -6.7910029019999996e-01 -6.1049909430000004e-01  2.0519880999999998e-03  5.3119270000000001e-04  2.0519880999999998e-03  5.3119270000000001e-04 -6.5826626099999996e-01 -6.3946510840000004e-01
2.564000000000000e+00 -7.0762606689999996e-01 -5.8161823489999998e-01  2.8041199000000002e-03  8.9379070000000001e-04  2.8041199000000002e-03  8.9379070000000001e-04 -6.8540995660000004e-01 -6.1342317999999996e-01
2.567000000000000e+00 -7.3118134369999999e-01 -5.5298709940000002e-01  3.7249263000000000e-03  7.6536349999999998e-04  3.7249263000000000e-03  7.6536349999999998e-04 -7.0879370519999996e-01 -5.8846640640000003e-01
