# GHz S RI R 50

2.205000000000000e+00  4.3919830944280152e-03 -2.9871121528251818e-02 -5.8549411109475458e-01  3.4053512159721150e-01  6.3230803830734750e-01  3.4187644477431378e-01
                        -5.8549411109474592e-01  3.4053512159720134e-01 -4.8737636421990631e-02 -1.7811219249624843e-01  1.0862475683813357e-01 -4.6214668621495786e-02
                         6.3230803830734827e-01  3.4187644477428886e-01  1.0862475683812636e-01 -4.6214668621462958e-02  6.6527735385716880e-02  3.5728697496973237e-02
2.229500000000000e+00 -1.2214710140719261e-02 -3.0095423035769057e-02 -5.4333156172238528e-01  4.0340959611213889e-01  6.5408494891197144e-01  2.9827369440108992e-01
                        -5.4333156172240948e-01  4.0340959611215238e-01 -6.9010205107851094e-02 -1.7640170253901816e-01  9.4757553950837736e-02 -5.4491089344867009e-02
                         6.5408494891195046e-01  2.9827369440111184e-01  9.4757553950859955e-02 -5.4491089344888374e-02  7.2101311280985417e-02  3.1437130182433791e-02
2.254000000000000e+00 -2.8553370199894471e-02 -2.7771613519433514e-02 -4.9450691193758473e-01  4.6114487109474561e-01  6.7257513975915506e-01  2.5319915441180446e-01
                        -4.9450691193753316e-01  4.6114487109472008e-01 -8.9355078619042017e-02 -1.7140801904788744e-01  8.0109742621070540e-02 -6.0270548921070234e-02
                         6.7257513975917937e-01  2.5319915441175728e-01  8.0109742621037205e-02 -6.0270548921030606e-02  7.7426020272434073e-02  2.6455100392481917e-02
2.278500000000000e+00 -4.4205192287325869e-02 -2.2997804555751185e-02 -4.3964281203119937e-01  5.1305637770864732e-01  6.8766915173276877e-01  2.0696408082043874e-01
                        -4.3964281203120109e-01  5.1305637770868007e-01 -1.0918496744832942e-01 -1.6306335587751006e-01  6.5088670934216997e-02 -6.3513288840169158e-02
                         6.8766915173278131e-01  2.0696408082044973e-01  6.5088670934216122e-02 -6.3513288840192333e-02  8.2401720836130163e-02  2.0774318268359869e-02
2.303000000000000e+00 -5.8778238733323267e-02 -1.5945775151586850e-02 -3.7942613568249123e-01  5.5853634044606293e-01  6.9930034894541959e-01  1.5988811332693711e-01
                        -3.7942613568249545e-01  5.5853634044607348e-01 -1.2788974427934485e-01 -1.5140863221330572e-01  5.0094486764117846e-02 -6.4241612493249209e-02
                         6.9930034894541715e-01  1.5988811332693992e-01  5.0094486764122460e-02 -6.4241612493257605e-02  8.6921189729850995e-02  1.4404268038988843e-02
2.327500000000000e+00 -7.1920959498969636e-02 -6.8541573588983308e-03 -3.1459766520988958e-01  5.9705776027439139e-01  7.0744519932897343e-01  1.1229110436973497e-01
                        -3.1459766520988730e-01  5.9705776027438806e-01 -1.4485725676704880e-01 -1.3659962402408485e-01  3.5511452364477600e-02 -6.2536335746845612e-02
                         7.0744519932896799e-01  1.1229110436973697e-01  3.5511452364476684e-02 -6.2536335746845362e-02  9.0873931005452865e-02  7.3741336468484808e-03
2.352000000000000e+00 -8.3333986360509149e-02  3.9809541115720841e-03 -2.4594234080032470e-01  6.2817665072796269e-01  7.1212170507905848e-01  6.4485123916268580e-02
                        -2.4594234080033109e-01  6.2817665072794948e-01 -1.5949550100266269e-01 -1.1890888096100716e-01  2.1700385535580593e-02 -5.8532193969397676e-02
                         7.1212170507905981e-01  6.4485123916277809e-02  2.1700385535578470e-02 -5.8532193969388503e-02  9.4150436108907082e-02 -2.6620966316423002e-04
2.376500000000000e+00 -9.2779686089087376e-02  1.6217503395677374e-02 -1.7428050666464270e-01  6.5153295895570529e-01  7.1338606862720655e-01  1.6767099850999161e-02
                        -1.7428050666466879e-01  6.5153295895572116e-01 -1.7125517741527829e-01 -9.8723244912824859e-02  8.9923086632818436e-03 -5.2412577628261875e-02
                         7.1338606862722076e-01  1.6767099851007428e-02  8.9923086632921027e-03 -5.2412577628251050e-02  9.6646647636040653e-02 -8.4462503796791117e-03
2.401000000000000e+00 -1.0008910131099411e-01  2.9480509258390897e-02 -1.0046038435636412e-01  6.6685075655609072e-01  7.1132780796461736e-01 -3.0587474391218908e-02
                        -1.0046038435637653e-01  6.6685075655609893e-01 -1.7965173438991630e-01 -7.6537095944269579e-02 -2.3167626844646533e-03 -4.4403963291555382e-02
                         7.1132780796463557e-01 -3.0587474391228345e-02 -2.3167626844461243e-03 -4.4403963291564381e-02  9.8268342068058970e-02 -1.7075986524882170e-02
2.425500000000000e+00 -1.0516607980677978e-01  4.3376001098234890e-02 -2.5351732487783971e-02  6.7393833903014344e-01  7.0606365563609508e-01 -7.7329405812884014e-02
                        -2.5351732487759283e-02  6.7393833903015210e-01 -1.8428620816984309e-01 -5.2941630449119169e-02 -1.1970106662333120e-02 -3.4770325983698086e-02
                         7.0606365563608564e-01 -7.7329405812899432e-02 -1.1970106662338000e-02 -3.4770325983714802e-02  9.8935129504338831e-02 -2.6048118880305757e-02
2.450000000000000e+00 -1.0798856748923365e-01  5.7505229091608816e-02  5.0159629497015953e-02  6.7268879257775305e-01  6.9773066732233502e-01 -1.2323899746338679e-01
                         5.0159629497019735e-02  6.7268879257775760e-01 -1.8486439360746909e-01 -2.8610481744696614e-02 -1.9753969385847656e-02 -2.3807662130688936e-02
                         6.9773066732233302e-01 -1.2323899746338834e-01 -1.9753969385844880e-02 -2.3807662130687374e-02  9.8583784909851396e-02 -3.5241149544590643e-02
2.474500000000000e+00 -1.0860718396298925e-01  7.1478588123233766e-02  1.2517697205923869e-01  6.6308137887290841e-01  6.8647900871664025e-01 -1.6812747078724533e-01
                         1.2517697205923825e-01  6.6308137887290819e-01 -1.8121399615923964e-01 -4.2818447753290812e-03 -2.5500939747638719e-02 -1.1838554480585045e-02
                         6.8647900871664291e-01 -1.6812747078724707e-01 -2.5500939747638392e-02 -1.1838554480585108e-02  9.7170682452023704e-02 -4.4523151711886345e-02
2.499000000000000e+00 -1.0714128959972177e-01  8.4928791504644260e-02  1.9879811039884998e-01  6.4518380662611752e-01  6.7246487572016056e-01 -2.1183665250775924e-01
                         1.9879811039884651e-01  6.4518380662611907e-01 -1.7329932642058518e-01  1.9262918688747389e-02 -2.9093228050315240e-02  7.9346592346853377e-04
                         6.7246487572016511e-01 -2.1183665250776210e-01 -2.9093228050311493e-02  7.9346592346497076e-04  9.4673197955002925e-02 -5.3755912700047356e-02
2.523500000000000e+00 -1.0377278931231917e-01  9.7522920883036379e-02  2.7012174424782109e-01  6.1915518303068351e-01  6.5584394429478721e-01 -2.5423707613228014e-01
                         2.7012174424782137e-01  6.1915518303068429e-01 -1.6123281797690289e-01  4.1224273221018341e-02 -3.0465858336815751e-02  1.3730097182441059e-02
                         6.5584394429478399e-01 -2.5423707613228314e-01 -3.0465858336817125e-02  1.3730097182437059e-02  9.1090054961616762e-02 -6.2799133120882200e-02
2.548000000000000e+00 -9.8737923457504886e-02  1.0897303662827042e-01  3.3825511375719236e-01  5.8524923549291719e-01  6.3676566720635164e-01 -2.9522471957578361e-01
                         3.3825511375718514e-01  5.8524923549291408e-01 -1.4528230718984597e-01  6.0812987537026963e-02 -2.9609570814484554e-02  2.6605293996419171e-02
                         6.3676566720635008e-01 -2.9522471957577356e-01 -2.9609570814484027e-02  2.6605293996425090e-02  8.6440692964888516e-02 -7.1514391186813756e-02
2.572500000000000e+00 -9.2317303707581330e-02  1.1904505485549430e-01  4.0232321485879885e-01  5.4381728625247694e-01  6.1536866036989568e-01 -3.3471663634762633e-01
                         4.0232321485879108e-01  5.4381728625246339e-01 -1.2587279024674658e-01  7.7281540119028450e-02 -2.6573063598450047e-02  3.9053326554970770e-02
                         6.1536866036989646e-01 -3.3471663634760990e-01 -2.6573063598448691e-02  3.9053326554988152e-02  8.0763812565744400e-02 -7.9768639288357993e-02
2.597000000000000e+00 -8.4824485419676146e-02  1.2756560142145051e-01  4.6147964147204745e-01  4.9531042898944871e-01  5.9177736316625762e-01 -3.7264575659633420e-01
                         4.6147964147206194e-01  4.9531042898944577e-01 -1.0358140416771196e-01  8.9957315926501025e-02 -2.1464121729429603e-02  5.0717865930752171e-02
                         5.9177736316624541e-01 -3.7264575659634064e-01 -2.1464121729433603e-02  5.0717865930751900e-02  7.4115296311898449e-02 -8.7437070445663151e-02
2.621500000000000e+00 -7.6593432592020269e-02  1.3442656755361260e-01  5.1491897247325347e-01  4.4028036020747718e-01  5.6610011096159119e-01 -4.0895515350730577e-01
                         5.1491897247323726e-01  4.4028036020748668e-01 -7.9124699778255272e-02  9.8275902334830412e-02 -1.4449189408777577e-02  6.1261899248438341e-02
                         5.6610011096160828e-01 -4.0895515350729617e-01 -1.4449189408761574e-02  6.1261899248439479e-02  6.6565721532165653e-02 -9.4405260055846763e-02
2.646000000000000e+00 -6.7965313243402478e-02  1.3958713751283644e-01  5.6189048508631023e-01  3.7937833581005420e-01  5.3842871057743180e-01 -4.4359209689990786e-01
                         5.6189048508630446e-01  3.7937833581007557e-01 -5.3337827156001882e-02  1.0181239909351471e-01 -5.7510180865609391e-03  7.0378114812858078e-02
                         5.3842871057746744e-01 -4.4359209689992801e-01 -5.7510180865348688e-03  7.0378114812833167e-02  5.8197683128843526e-02 -1.0057054785834946e-01
2.670500000000000e+00 -5.9275140677607890e-02  1.4307314358254822e-01  6.0171283342554038e-01  3.1335175663136372e-01  5.0883954835674572e-01 -4.7650224428667581e-01
                         6.0171283342555359e-01  3.1335175663137715e-01 -2.7145933131723730e-02  1.0030849811043743e-01  4.3558570196585746e-03  7.7799276443338436e-02
                         5.0883954835675338e-01 -4.7650224428669735e-01  4.3558570196556646e-03  7.7799276443321852e-02  4.9103137046025432e-02 -1.0584267809445622e-01
2.695000000000000e+00 -5.0838829355851947e-02  1.4497372292433114e-01  6.3378917571899285e-01  2.4303795469293304e-01  4.7739618071040069e-01 -5.0762433822769792e-01
                         6.3378917571898907e-01  2.4303795469292663e-01 -1.5287711467076117e-03  9.3693177581833612e-02  1.5551913848597406e-02  8.3308028126275829e-02
                         4.7739618071040069e-01 -5.0762433822769248e-01  1.5551913848602090e-02  8.3308028126279979e-02  3.9380960675759899e-02 -1.1014376603370417e-01
