# GHz S RI R 50

2.205000000000000e+00 -7.8541767180576507e-03 -1.5806063361301248e-02 -6.9137925841199810e-01 -1.3150495971204987e-01 -6.9137925841199666e-01 -1.3150495971205081e-01  7.4961525624594516e-02 -2.2744865978664652e-02
2.229500000000000e+00 -1.4625226569891479e-02 -1.6219167283814638e-02 -6.9530033331468055e-01 -1.0792926991984075e-01 -6.9530033331468266e-01 -1.0792926991984089e-01  7.5496353169900610e-02 -2.5637806844552625e-02
2.254000000000000e+00 -2.1416784516400767e-02 -1.6181736118678999e-02 -6.9838996030594713e-01 -8.4237045142187925e-02 -6.9838996030594003e-01 -8.4237045142184747e-02  7.5963687681277273e-02 -2.8645286185409350e-02
2.278500000000000e+00 -2.8202873356978273e-02 -1.5693669664477185e-02 -7.0064486506292789e-01 -6.0459503534823308e-02 -7.0064486506293033e-01 -6.0459503534829907e-02  7.6352969420685812e-02 -3.1766772270049454e-02
2.303000000000000e+00 -3.4957593973342825e-02 -1.4756371236713618e-02 -7.0206307580495220e-01 -3.6627928652638864e-02 -7.0206307580494209e-01 -3.6627928652628684e-02  7.6653582436315232e-02 -3.5000989596799488e-02
2.327500000000000e+00 -4.1655217683726077e-02 -1.3372736361003482e-02 -7.0264392138684573e-01 -1.2773606525708612e-02 -7.0264392138686793e-01 -1.2773606525727751e-02  7.6854899407170760e-02 -3.8345916377507783e-02
2.352000000000000e+00 -4.8270277244420887e-02 -1.1547135171746494e-02 -7.0238802586590787e-01  1.1072236831574017e-02 -7.0238802586589077e-01  1.1072236831530104e-02  7.6946326326369940e-02 -4.1798784626657197e-02
2.376500000000000e+00 -5.4777655995514429e-02 -9.2853886868628846e-03 -7.0129729956805475e-01  3.4878497262044242e-02 -7.0129729956803921e-01  3.4878497262061429e-02  7.6917346833577024e-02 -4.5356082825671065e-02
2.401000000000000e+00 -6.1152674684694271e-02 -6.5947391898865696e-03 -6.9937492670512857e-01  5.8614253433515680e-02 -6.9937492670513801e-01  5.8614253433520502e-02  7.6757566010229386e-02 -4.9013561095069699e-02
2.425500000000000e+00 -6.7371175536397432e-02 -3.4838149752385032e-03 -6.9662534960641509e-01  8.2248826724643412e-02 -6.9662534960641098e-01  8.2248826724642288e-02  7.6456753466107863e-02 -5.2766238795614664e-02
2.450000000000000e+00 -7.3409603147324864e-02  3.7410222998576327e-05 -6.9305424964667628e-01  1.0575183978263884e-01 -6.9305424964668394e-01  1.0575183978266164e-01  7.6004885542049233e-02 -5.6608414458660300e-02
2.474500000000000e+00 -7.9245081879133789e-02  3.9576628306371786e-03 -6.8866852496349618e-01  1.2909327357723935e-01 -6.8866852496349795e-01  1.2909327357723882e-01  7.5392186504432968e-02 -6.0533677924663298e-02
2.499000000000000e+00 -8.4855489400404632e-02  8.2644196533206635e-03 -6.8347626508986603e-01  1.5224352268333952e-01 -6.8347626508986681e-01  1.5224352268334690e-01  7.4609168580107868e-02 -6.4534924580442424e-02
2.523500000000000e+00 -9.0219526117159485e-02  1.2943962400389832e-02 -6.7748672263339438e-01  1.7517344863246145e-01 -6.7748672263340071e-01  1.7517344863246379e-01  7.3646670734424532e-02 -6.8604371548870655e-02
2.548000000000000e+00 -9.5316780243450708e-02  1.7981436113148980e-02 -6.7071028216424367e-01  1.9785443111721118e-01 -6.7071028216423678e-01  1.9785443111721140e-01  7.2495896083851222e-02 -7.2733575692080499e-02
2.572500000000000e+00 -1.0012778831638085e-01  2.3360911106444910e-02 -6.6315842648115009e-01  2.2025841686656467e-01 -6.6315842648115064e-01  2.2025841686656744e-01  7.1148447867332598e-02 -7.6913453299987097e-02
2.597000000000000e+00 -1.0463409098679366e-01  2.9065448044483789e-02 -6.5484370045385698e-01  2.4235796603741644e-01 -6.5484370045395690e-01  2.4235796603735524e-01  6.9596363900928909e-02 -8.1134301299967737e-02
2.621500000000000e+00 -1.0881828395727862e-01  3.5077165752268435e-02 -6.4577967264484293e-01  2.6412629596331894e-01 -6.4577967264483349e-01  2.6412629596331871e-01  6.7832149463860431e-02 -8.5385819852255448e-02
2.646000000000000e+00 -1.1266406395989996e-01  4.1377311388223821e-02 -6.3598089492337428e-01  2.8553732215036615e-01 -6.3598089492337062e-01  2.8553732215036542e-01  6.5848808568892636e-02 -8.9657136175806604e-02
2.670500000000000e+00 -1.1615626972318237e-01  4.7946332573977818e-02 -6.2546286030683695e-01  3.0656569640036763e-01 -6.2546286030684339e-01  3.0656569640037085e-01  6.3639873585366782e-02 -9.3936829458978868e-02
2.695000000000000e+00 -1.1928091787875934e-01  5.4763951109858364e-02 -6.1424195926017988e-01  3.2718684198393161e-01 -6.1424195926018144e-01  3.2718684198393200e-01  6.1199433192514960e-02 -9.8212956701281467e-02
