# GHz S RI R 50

2.205000000000000e+00 -7.8541767180576507e-03 -1.5806063361301248e-02 -6.9137925841199666e-01 -1.3150495971205081e-01 -6.9220698865898733e-01 -1.2971018550308597e-01
                        -6.9137925841199810e-01 -1.3150495971204987e-01  7.4961525624594516e-02 -2.2744865978664652e-02 -5.9806023319841958e-02  1.0735109778742535e-02
                        -6.9220698865898678e-01 -1.2971018550308613e-01 -5.9806023319840508e-02  1.0735109778743495e-02  7.2539254079889814e-02 -2.4613052186048142e-02
2.229500000000000e+00 -1.4625226569891479e-02 -1.6219167283814638e-02 -6.9530033331468266e-01 -1.0792926991984089e-01 -6.9607844706301925e-01 -1.0608474718374938e-01
                        -6.9530033331468055e-01 -1.0792926991984075e-01  7.5496353169900610e-02 -2.5637806844552625e-02 -5.4594988499393225e-02  1.4342007957713900e-02
                        -6.9607844706301958e-01 -1.0608474718374938e-01 -5.4594988499392767e-02  1.4342007957714132e-02  7.3012546661485087e-02 -2.7486754337483658e-02
2.254000000000000e+00 -2.1416784516400767e-02 -1.6181736118678999e-02 -6.9838996030594003e-01 -8.4237045142184747e-02 -6.9911604002319172e-01 -8.2344092270490790e-02
                        -6.9838996030594713e-01 -8.4237045142187925e-02  7.5963687681277273e-02 -2.8645286185409350e-02 -4.9270491412011438e-02  1.7663764384466027e-02
                        -6.9911604002318650e-01 -8.2344092270485156e-02 -4.9270491412018863e-02  1.7663764384458984e-02  7.3417892643472510e-02 -3.0473602080405622e-02
2.278500000000000e+00 -2.8202873356978273e-02 -1.5693669664477185e-02 -7.0064486506293033e-01 -6.0459503534829907e-02 -7.0131652577770620e-01 -5.8519547129433046e-02
                        -7.0064486506292789e-01 -6.0459503534823308e-02  7.6352969420685812e-02 -3.1766772270049454e-02 -4.3845219578009277e-02  2.0697734373696569e-02
                        -7.0131652577770509e-01 -5.8519547129438625e-02 -4.3845219578011144e-02  2.0697734373704899e-02  7.3744731154272686e-02 -3.3573008370479690e-02
2.303000000000000e+00 -3.4957593973342825e-02 -1.4756371236713618e-02 -7.0206307580494209e-01 -3.6627928652628684e-02 -7.0267796989162845e-01 -3.4642502796588863e-02
                        -7.0206307580495220e-01 -3.6627928652638864e-02  7.6653582436315232e-02 -3.5000989596799488e-02 -3.8331883675231722e-02  2.3441868080867748e-02
                        -7.0267796989161668e-01 -3.4642502796576005e-02 -3.8331883675247425e-02  2.3441868080849734e-02  7.3982448259301739e-02 -3.6783639402418453e-02
2.327500000000000e+00 -4.1655217683726077e-02 -1.3372736361003482e-02 -7.0264392138686793e-01 -1.2773606525727751e-02 -7.0319974334788560e-01 -1.0744351814095514e-02
                        -7.0264392138684573e-01 -1.2773606525708612e-02  7.6854899407170760e-02 -3.8345916377507783e-02 -3.2743181136958718e-02  2.5894708613752739e-02
                        -7.0319974334790825e-01 -1.0744351814116882e-02 -3.2743181136926959e-02  2.5894708613782423e-02  7.4120422017361701e-02 -4.0103412190003011e-02
2.352000000000000e+00 -4.8270277244420887e-02 -1.1547135171746494e-02 -7.0238802586589077e-01  1.1072236831530104e-02 -7.0288251708237759e-01  1.3143574502420523e-02
                        -7.0238802586590787e-01  1.1072236831574017e-02  7.6946326326369940e-02 -4.1798784626657197e-02 -2.7091760061121292e-02  2.8055387306393932e-02
                        -7.0288251708235105e-01  1.3143574502376989e-02 -2.7091760061149307e-02  2.8055387306458051e-02  7.4148067391769809e-02 -4.3529494766310538e-02
2.376500000000000e+00 -5.4777655995514429e-02 -9.2853886868628846e-03 -7.0129729956803921e-01  3.4878497262061429e-02 -7.0172825300783093e-01  3.6990068145822619e-02
                        -7.0129729956805475e-01  3.4878497262044242e-02  7.6917346833577024e-02 -4.5356082825671065e-02 -2.1390183654373562e-02  2.9923616234190493e-02
                        -7.0172825300781461e-01  3.6990068145834831e-02 -2.1390183654394327e-02  2.9923616234169521e-02  7.4054880812566226e-02 -4.7058308959119242e-02
2.401000000000000e+00 -6.1152674684694271e-02 -6.5947391898865696e-03 -6.9937492670513801e-01  5.8614253433520502e-02 -6.9974019156834311e-01  6.0764105626725157e-02
                        -6.9937492670512857e-01  5.8614253433515680e-02  7.6757566010229386e-02 -4.9013561095069699e-02 -1.5650895421126295e-02  3.1499678052092236e-02
                        -6.9974019156832945e-01  6.0764105626732186e-02 -1.5650895421136925e-02  3.1499678052077193e-02  7.3830484205222868e-02 -5.0685535689392186e-02
2.425500000000000e+00 -6.7371175536397432e-02 -3.4838149752385032e-03 -6.9662534960641098e-01  8.2248826724642288e-02 -6.9692283589152837e-01  8.4434908093071609e-02
                        -6.9662534960641509e-01  8.2248826724643412e-02  7.6456753466107863e-02 -5.2766238795614664e-02 -9.8861852831026113e-03  3.2784413259142546e-02
                        -6.9692283589153647e-01  8.4434908093075065e-02 -9.8861852831074615e-03  3.2784413259137342e-02  7.3464668318831833e-02 -5.4406122706925429e-02
2.450000000000000e+00 -7.3409603147324864e-02  3.7410222998576327e-05 -6.9305424964668394e-01  1.0575183978266164e-01 -6.9328193261788740e-01  1.0797200011661019e-01
                        -6.9305424964667628e-01  1.0575183978263884e-01  7.6004885542049233e-02 -5.6608414458660300e-02 -4.1081568226935799e-03  3.3779204987390246e-02
                        -6.9328193261788074e-01  1.0797200011658699e-01 -4.1081568227048660e-03  3.3779204987394812e-02  7.2947435175114803e-02 -5.8214294674441190e-02
2.474500000000000e+00 -7.9245081879133789e-02  3.9576628306371786e-03 -6.8866852496349795e-01  1.2909327357723882e-01 -6.8882444950486277e-01  1.3134526696744661e-01
                        -6.8866852496349618e-01  1.2909327357723935e-01  7.5392186504432968e-02 -6.0533677924663298e-02  1.6713042092001773e-03  3.4485961444422980e-02
                        -6.8882444950486021e-01  1.3134526696744531e-01  1.6713042091984179e-03  3.4485961444426540e-02  7.2269039508476463e-02 -6.2103565473577482e-02
2.499000000000000e+00 -8.4855489400404632e-02  8.2644196533206635e-03 -6.8347626508986681e-01  1.5224352268334690e-01 -6.8355854993168630e-01  1.5452501010664321e-01
                        -6.8347626508986603e-01  1.5224352268333952e-01  7.4609168580107868e-02 -6.4534924580442424e-02  7.4405599477280334e-03  3.4907096103805602e-02
                        -6.8355854993167897e-01  1.5452501010664746e-01  7.4405599477212992e-03  3.4907096103797108e-02  7.1420029051167344e-02 -6.6066752625414976e-02
2.523500000000000e+00 -9.0219526117159485e-02  1.2943962400389832e-02 -6.7748672263340071e-01  1.7517344863246379e-01 -6.7749356443700615e-01  1.7748200074074386e-01
                        -6.7748672263339438e-01  1.7517344863246145e-01  7.3646670734424532e-02 -6.8604371548870655e-02  1.3188248909676046e-02  3.5045505788532140e-02
                        -6.7749356443700393e-01  1.7748200074074455e-01  1.3188248909674960e-02  3.5045505788530995e-02  7.0391283554268921e-02 -7.0095993681062660e-02
2.548000000000000e+00 -9.5316780243450708e-02  1.7981436113148980e-02 -6.7071028216423678e-01  1.9785443111721140e-01 -6.7063995944991739e-01  2.0018753121182720e-01
                        -6.7071028216424367e-01  1.9785443111721118e-01  7.2495896083851222e-02 -7.2733575692080499e-02  1.8903312796286709e-02  3.4904546761580169e-02
                        -6.7063995944992183e-01  2.0018753121183194e-01  1.8903312796286893e-02  3.4904546761574964e-02  6.9174052448169890e-02 -7.4182764445783797e-02
2.572500000000000e+00 -1.0012778831638085e-01  2.3360911106444910e-02 -6.6315842648115064e-01  2.2025841686656744e-01 -6.6300930339383524e-01  2.2261346405624419e-01
                        -6.6315842648115009e-01  2.2025841686656467e-01  7.1148447867332598e-02 -7.6913453299987097e-02  2.4575021490507200e-02  3.4488008951093101e-02
                        -6.6300930339382913e-01  2.2261346405624413e-01  2.4575021490508872e-02  3.4488008951089118e-02  6.7759991048515336e-02 -7.8317898895278681e-02
2.597000000000000e+00 -1.0463409098679366e-01  2.9065448044483789e-02 -6.5484370045395690e-01  2.4235796603735524e-01 -6.5461423034913135e-01  2.4473227855695687e-01
                        -6.5484370045385698e-01  2.4235796603741644e-01  6.9596363900928909e-02 -8.1134301299967737e-02  3.0192996140895101e-02  3.3800088442158482e-02
                        -6.5461423034908950e-01  2.4473227855699176e-01  3.0192996140846549e-02  3.3800088442145021e-02  6.6141195249850085e-02 -8.2491610638430135e-02
2.621500000000000e+00 -1.0881828395727862e-01  3.5077165752268435e-02 -6.4577967264483349e-01  2.6412629596331871e-01 -6.4546840148627249e-01  2.6651711464758987e-01
                        -6.4577967264484293e-01  2.6412629596331894e-01  6.7832149463860431e-02 -8.5385819852255448e-02  3.5747230239264821e-02  3.2845358364967651e-02
                        -6.4546840148627738e-01  2.6651711464759392e-01  3.5747230239263371e-02  3.2845358364964286e-02  6.4310234637596775e-02 -8.6693515777873070e-02
2.646000000000000e+00 -1.1266406395989996e-01  4.1377311388223821e-02 -6.3598089492337062e-01  2.8553732215036542e-01 -6.3558646448523259e-01  2.8794181404757274e-01
                        -6.3598089492337428e-01  2.8553732215036615e-01  6.5848808568892636e-02 -8.9657136175806604e-02  4.1228108603861162e-02  3.1628738315936475e-02
                        -6.3558646448523437e-01  2.8794181404757463e-01  4.1228108603861814e-02  3.1628738315934310e-02  6.2260183981478492e-02 -9.0912657009166606e-02
2.670500000000000e+00 -1.1615626972318237e-01  4.7946332573977818e-02 -6.2546286030684339e-01  3.0656569640037085e-01 -6.2498401116628810e-01  3.0898095850991719e-01
                        -6.2546286030683695e-01  3.0656569640036763e-01  6.3639873585366782e-02 -9.3936829458978868e-02  4.6626424196632432e-02  3.0155462434325275e-02
                        -6.2498401116628521e-01  3.0898095850991703e-01  4.6626424196631572e-02  3.0155462434326007e-02  5.9984653076160147e-02 -9.5137528825500750e-02
2.695000000000000e+00 -1.1928091787875934e-01  5.4763951109858364e-02 -6.1424195926018144e-01  3.2718684198393200e-01 -6.1367753356976629e-01  3.2960990510098226e-01
                        -6.1424195926017988e-01  3.2718684198393161e-01  6.1199433192514960e-02 -9.8212956701281467e-02  5.1933392699316440e-02  2.8431046269969135e-02
                        -6.1367753356976340e-01  3.2960990510098109e-01  5.1933392699318133e-02  2.8431046269968108e-02  5.7477814907493312e-02 -9.9356103666228407e-02
